T7A64 15400:443 SEGGER J-Link V6.46 Log File (0000ms, 5874ms total)
T7A64 15400:443 DLL Compiled: May 23 2019 17:49:56 (0000ms, 5874ms total)
T7A64 15400:443 Logging started @ 2025-12-31 14:33 (0000ms, 5874ms total)
T7A64 15400:443 JLINK_SetWarnOutHandler(...) (0000ms, 5874ms total)
T7A64 15400:443 JLINK_OpenEx(...)
Firmware: J-Link OB-STM32F072-CortexM compiled Jan  7 2019 14:09:37
Hardware: V1.00
S/N: 1
Feature(s): GDB, RDI, FlashBP, FlashDL, JFlash, RDDI
TELNET listener socket opened on port 19021WEBSRV 
Starting webserver (0056ms, 5930ms total)
T7A64 15400:443 WEBSRV Webserver running on local port 19080 (0056ms, 5930ms total)
T7A64 15400:443   returns O.K. (0056ms, 5930ms total)
T7A64 15400:499 JLINK_GetEmuCaps()  returns 0xB8EA5A33 (0000ms, 5930ms total)
T7A64 15400:500 JLINK_TIF_GetAvailable(...) (0000ms, 5930ms total)
T7A64 15400:500 JLINK_SetErrorOutHandler(...) (0000ms, 5930ms total)
T7A64 15400:500 JLINK_ExecCommand("ProjectFile = "E:\MEP\yuan\mep-gd\MDK-ARM\JLinkSettings.ini"", ...).   returns 0x00 (0001ms, 5931ms total)
T7A64 15400:510 JLINK_ExecCommand("Device = STM32F429VGTx", ...). Device "STM32F429VG" selected.  returns 0x00 (0004ms, 5935ms total)
T7A64 15400:514 JLINK_ExecCommand("DisableConnectionTimeout", ...).   returns 0x01 (0000ms, 5935ms total)
T7A64 15400:514 JLINK_GetHardwareVersion()  returns 0x2710 (0000ms, 5935ms total)
T7A64 15400:514 JLINK_GetDLLVersion()  returns 64600 (0000ms, 5935ms total)
T7A64 15400:514 JLINK_GetFirmwareString(...) (0000ms, 5935ms total)
T7A64 15400:527 JLINK_GetDLLVersion()  returns 64600 (0000ms, 5935ms total)
T7A64 15400:527 JLINK_GetCompileDateTime() (0000ms, 5935ms total)
T7A64 15400:530 JLINK_GetFirmwareString(...) (0000ms, 5935ms total)
T7A64 15400:534 JLINK_GetHardwareVersion()  returns 0x2710 (0000ms, 5935ms total)
T7A64 15400:542 JLINK_TIF_Select(JLINKARM_TIF_SWD)  returns 0x00 (0001ms, 5936ms total)
T7A64 15400:543 JLINK_SetSpeed(5000) (0000ms, 5936ms total)
T7A64 15400:543 JLINK_GetId() >0x10B TIF>Found SW-DP with ID 0x2BA01477 >0x0D TIF> >0x28 TIF> >0x0D TIF> >0x28 TIF> >0x0D TIF> >0x28 TIF> >0x0D TIF> >0x28 TIF> >0x0D TIF> >0x21 TIF> >0x0D TIF> >0x28 TIF> >0x0D TIF> >0x28 TIF> >0x0D TIF> >0x28 TIF> >0x0D TIF> >0x21 TIF> >0x0D TIF> >0x21 TIF> >0x0D TIF> >0x28 TIF> >0x0D TIF> >0x21 TIF> >0x0D TIF> >0x21 TIF> >0x0D TIF> >0x28 TIF> >0x0D TIF> >0x21 TIF> >0x0D TIF> >0x21 TIF> >0x0D TIF> >0x28 TIF> >0x0D TIF> >0x21 TIF> >0x0D TIF> >0x21 TIF> >0x0D TIF>
 >0x28 TIF> >0x0D TIF> >0x21 TIF> >0x0D TIF> >0x21 TIF> >0x0D TIF> >0x28 TIF> >0x0D TIF> >0x21 TIF> >0x0D TIF> >0x21 TIF> >0x0D TIF> >0x28 TIF> >0x0D TIF> >0x21 TIF> >0x0D TIF> >0x21 TIF> >0x10B TIF>Found SW-DP with ID 0x2BA01477 >0x0D TIF> >0x28 TIF> >0x0D TIF> >0x28 TIF> >0x0D TIF> >0x28 TIF> >0x0D TIF> >0x28 TIF> >0x0D TIF> >0x21 TIF> >0x0D TIF> >0x28 TIF>Scanning AP map to find all available APs >0x0D TIF> >0x28 TIF> >0x0D TIF> >0x21 TIF> >0x0D TIF> >0x21 TIF> >0x0D TIF> >0x28 TIF> >0x0D TIF>
 >0x21 TIF> >0x0D TIF> >0x21 TIF>AP[1]: Stopped AP scan as end of AP map has been reachedAP[0]: AHB-AP (IDR: 0x24770011)Iterating through AP map to find AHB-AP to use >0x42 TIF> >0x28 TIF> >0x0D TIF> >0x28 TIF> >0x0D TIF> >0x21 TIF> >0x0D TIF> >0x21 TIF> >0x42 TIF> >0x28 TIF> >0x0D TIF> >0x28 TIF> >0x0D TIF> >0x28 TIF> >0x0D TIF> >0x21 TIF> >0x0D TIF> >0x21 TIF>AP[0]: Core foundAP[0]: AHB-AP ROM base: 0xE00FF000 >0x0D TIF> >0x28 TIF> >0x0D TIF> >0x28 TIF> >0x0D TIF> >0x28 TIF> >0x0D TIF> >0x21 TIF>
 >0x0D TIF> >0x21 TIF>CPUID register: 0x410FC241. Implementer code: 0x41 (ARM)Found Cortex-M4 r0p1, Little endian. -- Max. mem block: 0x00002458 -- CPU_ReadMem(4 bytes @ 0xE000EDF0) -- CPU_WriteMem(4 bytes @ 0xE000EDF0) -- CPU_ReadMem(4 bytes @ 0xE0002000)FPUnit: 6 code (BP) slots and 2 literal slots -- CPU_ReadMem(4 bytes @ 0xE000EDFC) -- CPU_WriteMem(4 bytes @ 0xE000EDFC) -- CPU_ReadMem(4 bytes @ 0xE0001000) -- CPU_WriteMem(4 bytes @ 0xE0001000) -- CPU_ReadMem(4 bytes @ 0xE000ED88)
 -- CPU_WriteMem(4 bytes @ 0xE000ED88) -- CPU_ReadMem(4 bytes @ 0xE000ED88) -- CPU_WriteMem(4 bytes @ 0xE000ED88)CoreSight components:ROMTbl[0] @ E00FF000 -- CPU_ReadMem(16 bytes @ 0xE00FF000) -- CPU_ReadMem(16 bytes @ 0xE000EFF0) -- CPU_ReadMem(16 bytes @ 0xE000EFE0)ROMTbl[0][0]: E000E000, CID: B105E00D, PID: 000BB00C SCS-M7 -- CPU_ReadMem(16 bytes @ 0xE0001FF0) -- CPU_ReadMem(16 bytes @ 0xE0001FE0)ROMTbl[0][1]: E0001000, CID: B105E00D, PID: 003BB002 DWT -- CPU_ReadMem(16 bytes @ 0xE0002FF0)
 -- CPU_ReadMem(16 bytes @ 0xE0002FE0)ROMTbl[0][2]: E0002000, CID: B105E00D, PID: 002BB003 FPB -- CPU_ReadMem(16 bytes @ 0xE0000FF0) -- CPU_ReadMem(16 bytes @ 0xE0000FE0)ROMTbl[0][3]: E0000000, CID: B105E00D, PID: 003BB001 ITM -- CPU_ReadMem(16 bytes @ 0xE00FF010) -- CPU_ReadMem(16 bytes @ 0xE0040FF0) -- CPU_ReadMem(16 bytes @ 0xE0040FE0)ROMTbl[0][4]: E0040000, CID: B105900D, PID: 000BB9A1 TPIU -- CPU_ReadMem(16 bytes @ 0xE0041FF0) -- CPU_ReadMem(16 bytes @ 0xE0041FE0)
ROMTbl[0][5]: E0041000, CID: 00000000, PID: 00000000 ??? >0x0D TIF> >0x21 TIF>  returns 0x2BA01477 (0208ms, 6144ms total)
T7A64 15400:751 JLINK_GetDLLVersion()  returns 64600 (0000ms, 6144ms total)
T7A64 15400:751 JLINK_CORE_GetFound()  returns 0xE0000FF (0000ms, 6144ms total)
T7A64 15400:751 JLINK_GetDebugInfo(0x100 = JLINKARM_ROM_TABLE_ADDR_INDEX) -- Value=0xE00FF000  returns 0x00 (0000ms, 6144ms total)
T7A64 15400:761 JLINK_GetDebugInfo(0x100 = JLINKARM_ROM_TABLE_ADDR_INDEX) -- Value=0xE00FF000  returns 0x00 (0000ms, 6144ms total)
T7A64 15400:761 JLINK_GetDebugInfo(0x101 = JLINKARM_DEBUG_INFO_ETM_ADDR_INDEX) -- Value=0x00000000  returns 0x00 (0000ms, 6144ms total)
T7A64 15400:761 JLINK_ReadMemEx(0xE0041FF0, 0x0010 Bytes, ..., Flags = 0x02000004) -- CPU_ReadMem(16 bytes @ 0xE0041FF0) - Data: 00 00 00 00 00 00 00 00 00 00 00 00 00 00 00 00  returns 0x10 (0001ms, 6145ms total)
T7A64 15400:762 JLINK_GetDebugInfo(0x102 = JLINKARM_DEBUG_INFO_MTB_ADDR_INDEX) -- Value=0x00000000  returns 0x00 (0000ms, 6145ms total)
T7A64 15400:762 JLINK_GetDebugInfo(0x103 = JLINKARM_DEBUG_INFO_TPIU_ADDR_INDEX) -- Value=0xE0040000  returns 0x00 (0000ms, 6145ms total)
T7A64 15400:762 JLINK_GetDebugInfo(0x104 = JLINKARM_DEBUG_INFO_ITM_ADDR_INDEX) -- Value=0xE0000000  returns 0x00 (0000ms, 6145ms total)
T7A64 15400:762 JLINK_GetDebugInfo(0x105 = JLINKARM_DEBUG_INFO_DWT_ADDR_INDEX) -- Value=0xE0001000  returns 0x00 (0000ms, 6145ms total)
T7A64 15400:762 JLINK_GetDebugInfo(0x106 = JLINKARM_DEBUG_INFO_FPB_ADDR_INDEX) -- Value=0xE0002000  returns 0x00 (0000ms, 6145ms total)
T7A64 15400:762 JLINK_GetDebugInfo(0x107 = JLINKARM_DEBUG_INFO_NVIC_ADDR_INDEX) -- Value=0xE000E000  returns 0x00 (0000ms, 6145ms total)
T7A64 15400:762 JLINK_GetDebugInfo(0x10C = JLINKARM_DEBUG_INFO_DBG_ADDR_INDEX) -- Value=0xE000EDF0  returns 0x00 (0000ms, 6145ms total)
T7A64 15400:762 JLINK_GetDebugInfo(0x01 = Unknown) -- Value=0x00000001  returns 0x00 (0000ms, 6145ms total)
T7A64 15400:762 JLINK_ReadMemU32(0xE000ED00, 0x0001 Items, ...) -- CPU_ReadMem(4 bytes @ 0xE000ED00) - Data: 41 C2 0F 41  returns 1 (0000ms, 6145ms total)
T7A64 15400:762 JLINK_GetDebugInfo(0x10F = JLINKARM_DEBUG_INFO_HAS_CORTEX_M_SECURITY_EXT_INDEX) -- Value=0x00000000  returns 0x00 (0000ms, 6145ms total)
T7A64 15400:762 JLINK_SetResetType(JLINKARM_CM3_RESET_TYPE_NORMAL)  returns JLINKARM_CM3_RESET_TYPE_NORMAL (0000ms, 6145ms total)
T7A64 15400:762 JLINK_Reset() -- CPU is running -- CPU_WriteMem(4 bytes @ 0xE000EDF0) -- CPU is running -- CPU_WriteMem(4 bytes @ 0xE000EDFC)Reset: Halt core after reset via DEMCR.VC_CORERESET. >0x35 TIF>Reset: Reset device via AIRCR.SYSRESETREQ. -- CPU is running -- CPU_WriteMem(4 bytes @ 0xE000ED0C) >0x0D TIF> >0x28 TIF> -- CPU_ReadMem(4 bytes @ 0xE000EDF0) -- CPU_ReadMem(4 bytes @ 0xE000EDF0) -- CPU is running -- CPU_WriteMem(4 bytes @ 0xE000EDF0) -- CPU is running
 -- CPU_WriteMem(4 bytes @ 0xE000EDFC) -- CPU_ReadMem(4 bytes @ 0xE000EDF0) -- CPU_WriteMem(4 bytes @ 0xE0002000) -- CPU_ReadMem(4 bytes @ 0xE000EDFC) -- CPU_ReadMem(4 bytes @ 0xE0001000) (0075ms, 6220ms total)
T7A64 15400:837 JLINK_Halt()  returns 0x00 (0000ms, 6220ms total)
T7A64 15400:837 JLINK_ReadMemU32(0xE000EDF0, 0x0001 Items, ...) -- CPU_ReadMem(4 bytes @ 0xE000EDF0) - Data: 03 00 03 00  returns 1 (0001ms, 6221ms total)
T7A64 15400:838 JLINK_WriteU32(0xE000EDF0, 0xA05F0003) -- CPU_WriteMem(4 bytes @ 0xE000EDF0)  returns 0 (0000ms, 6221ms total)
T7A64 15400:838 JLINK_WriteU32(0xE000EDFC, 0x01000000) -- CPU_WriteMem(4 bytes @ 0xE000EDFC)  returns 0 (0001ms, 6222ms total)
T7A64 15400:852 JLINK_GetHWStatus(...)  returns 0x00 (0000ms, 6222ms total)
T7A64 15400:858 JLINK_GetNumBPUnits(Type = 0xFFFFFF00)  returns 0x06 (0000ms, 6222ms total)
T7A64 15400:858 JLINK_GetNumBPUnits(Type = 0xF0)  returns 0x2000 (0000ms, 6222ms total)
T7A64 15400:858 JLINK_GetNumWPUnits()  returns 0x04 (0000ms, 6222ms total)
T7A64 15400:869 JLINK_GetSpeed()  returns 0x7D0 (0000ms, 6222ms total)
T7A64 15400:873 JLINK_ReadMemU32(0xE000E004, 0x0001 Items, ...) -- CPU_ReadMem(4 bytes @ 0xE000E004) - Data: 02 00 00 00  returns 1 (0000ms, 6222ms total)
T7A64 15400:873 JLINK_ReadMemU32(0xE000E004, 0x0001 Items, ...) -- CPU_ReadMem(4 bytes @ 0xE000E004) - Data: 02 00 00 00  returns 1 (0001ms, 6223ms total)
T7A64 15400:874 JLINK_WriteMemEx(0xE0001000, 0x001C Bytes, ..., Flags = 0x02000004) - Data: 01 00 00 00 00 00 00 00 00 00 00 00 00 00 00 00 ... -- CPU_WriteMem(28 bytes @ 0xE0001000)  returns 0x1C (0001ms, 6224ms total)
T7A64 15400:875 JLINK_Halt()  returns 0x00 (0000ms, 6224ms total)
T7A64 15400:875 JLINK_IsHalted()  returns TRUE (0000ms, 6224ms total)
T7A64 15400:880 JLINK_WriteMem(0x20000000, 0x0180 Bytes, ...) - Data: 00 BE 0A E0 0D 78 2D 06 68 40 08 24 40 00 00 D3 ... -- CPU_WriteMem(384 bytes @ 0x20000000)  returns 0x180 (0004ms, 6228ms total)
T7A64 15400:884 JLINK_WriteReg(R0, 0x08000000)  returns 0x00 (0000ms, 6228ms total)
T7A64 15400:884 JLINK_WriteReg(R1, 0x0ABA9500)  returns 0x00 (0000ms, 6228ms total)
T7A64 15400:884 JLINK_WriteReg(R2, 0x00000001)  returns 0x00 (0000ms, 6228ms total)
T7A64 15400:884 JLINK_WriteReg(R3, 0x00000000)  returns 0x00 (0000ms, 6228ms total)
T7A64 15400:884 JLINK_WriteReg(R4, 0x00000000)  returns 0x00 (0000ms, 6228ms total)
T7A64 15400:884 JLINK_WriteReg(R5, 0x00000000)  returns 0x00 (0000ms, 6228ms total)
T7A64 15400:884 JLINK_WriteReg(R6, 0x00000000)  returns 0x00 (0000ms, 6228ms total)
T7A64 15400:884 JLINK_WriteReg(R7, 0x00000000)  returns 0x00 (0000ms, 6228ms total)
T7A64 15400:884 JLINK_WriteReg(R8, 0x00000000)  returns 0x00 (0000ms, 6228ms total)
T7A64 15400:884 JLINK_WriteReg(R9, 0x2000017C)  returns 0x00 (0000ms, 6228ms total)
T7A64 15400:884 JLINK_WriteReg(R10, 0x00000000)  returns 0x00 (0000ms, 6228ms total)
T7A64 15400:884 JLINK_WriteReg(R11, 0x00000000)  returns 0x00 (0000ms, 6228ms total)
T7A64 15400:884 JLINK_WriteReg(R12, 0x00000000)  returns 0x00 (0000ms, 6228ms total)
T7A64 15400:884 JLINK_WriteReg(R13 (SP), 0x20001000)  returns 0x00 (0000ms, 6228ms total)
T7A64 15400:884 JLINK_WriteReg(R14, 0x20000001)  returns 0x00 (0000ms, 6228ms total)
T7A64 15400:884 JLINK_WriteReg(R15 (PC), 0x20000054)  returns 0x00 (0000ms, 6228ms total)
T7A64 15400:884 JLINK_WriteReg(XPSR, 0x01000000)  returns 0x00 (0000ms, 6228ms total)
T7A64 15400:884 JLINK_WriteReg(MSP, 0x20001000)  returns 0x00 (0000ms, 6228ms total)
T7A64 15400:884 JLINK_WriteReg(PSP, 0x20001000)  returns 0x00 (0000ms, 6228ms total)
T7A64 15400:884 JLINK_WriteReg(CFBP, 0x00000000)  returns 0x00 (0000ms, 6228ms total)
T7A64 15400:884 JLINK_SetBPEx(Addr = 0x20000000, Type = 0xFFFFFFF2) -- CPU_ReadMem(2 bytes @ 0x20000000)  returns 0x00000001 (0001ms, 6229ms total)
T7A64 15400:885 JLINK_Go() -- CPU_WriteMem(2 bytes @ 0x20000000) -- CPU_ReadMem(4 bytes @ 0xE0001000) -- CPU_WriteMem(4 bytes @ 0xE0002008) -- CPU_WriteMem(4 bytes @ 0xE000200C) -- CPU_WriteMem(4 bytes @ 0xE0002010) -- CPU_WriteMem(4 bytes @ 0xE0002014) -- CPU_WriteMem(4 bytes @ 0xE0002018) -- CPU_WriteMem(4 bytes @ 0xE000201C) -- CPU_WriteMem(4 bytes @ 0xE0001004) (0008ms, 6237ms total)
T7A64 15400:893 JLINK_IsHalted() -- CPU_ReadMem(2 bytes @ 0x20000000)  returns TRUE (0005ms, 6242ms total)
T7A64 15400:898 JLINK_ReadReg(R15 (PC))  returns 0x20000000 (0001ms, 6238ms total)
T7A64 15400:899 JLINK_ClrBPEx(BPHandle = 0x00000001)  returns 0x00 (0000ms, 6238ms total)
T7A64 15400:899 JLINK_ReadReg(R0)  returns 0x00000000 (0000ms, 6238ms total)
T7A64 15400:899 JLINK_WriteReg(R0, 0x08000000)  returns 0x00 (0001ms, 6239ms total)
T7A64 15400:900 JLINK_WriteReg(R1, 0x00004000)  returns 0x00 (0000ms, 6239ms total)
T7A64 15400:900 JLINK_WriteReg(R2, 0x000000FF)  returns 0x00 (0000ms, 6239ms total)
T7A64 15400:900 JLINK_WriteReg(R3, 0x00000000)  returns 0x00 (0000ms, 6239ms total)
T7A64 15400:900 JLINK_WriteReg(R4, 0x00000000)  returns 0x00 (0000ms, 6239ms total)
T7A64 15400:900 JLINK_WriteReg(R5, 0x00000000)  returns 0x00 (0000ms, 6239ms total)
T7A64 15400:900 JLINK_WriteReg(R6, 0x00000000)  returns 0x00 (0000ms, 6239ms total)
T7A64 15400:900 JLINK_WriteReg(R7, 0x00000000)  returns 0x00 (0000ms, 6239ms total)
T7A64 15400:900 JLINK_WriteReg(R8, 0x00000000)  returns 0x00 (0000ms, 6239ms total)
T7A64 15400:900 JLINK_WriteReg(R9, 0x2000017C)  returns 0x00 (0000ms, 6239ms total)
T7A64 15400:900 JLINK_WriteReg(R10, 0x00000000)  returns 0x00 (0000ms, 6239ms total)
T7A64 15400:900 JLINK_WriteReg(R11, 0x00000000)  returns 0x00 (0000ms, 6239ms total)
T7A64 15400:900 JLINK_WriteReg(R12, 0x00000000)  returns 0x00 (0000ms, 6239ms total)
T7A64 15400:900 JLINK_WriteReg(R13 (SP), 0x20001000)  returns 0x00 (0000ms, 6239ms total)
T7A64 15400:900 JLINK_WriteReg(R14, 0x20000001)  returns 0x00 (0000ms, 6239ms total)
T7A64 15400:900 JLINK_WriteReg(R15 (PC), 0x20000020)  returns 0x00 (0000ms, 6239ms total)
T7A64 15400:900 JLINK_WriteReg(XPSR, 0x01000000)  returns 0x00 (0000ms, 6239ms total)
T7A64 15400:900 JLINK_WriteReg(MSP, 0x20001000)  returns 0x00 (0000ms, 6239ms total)
T7A64 15400:900 JLINK_WriteReg(PSP, 0x20001000)  returns 0x00 (0000ms, 6239ms total)
T7A64 15400:900 JLINK_WriteReg(CFBP, 0x00000000)  returns 0x00 (0000ms, 6239ms total)
T7A64 15400:900 JLINK_SetBPEx(Addr = 0x20000000, Type = 0xFFFFFFF2)  returns 0x00000002 (0000ms, 6239ms total)
T7A64 15400:900 JLINK_Go() -- CPU_ReadMem(4 bytes @ 0xE0001000) (0005ms, 6244ms total)
T7A64 15400:905 JLINK_IsHalted() -- CPU_ReadMem(2 bytes @ 0x20000000)  returns TRUE (0005ms, 6249ms total)
T7A64 15400:910 JLINK_ReadReg(R15 (PC))  returns 0x20000000 (0000ms, 6244ms total)
T7A64 15400:910 JLINK_ClrBPEx(BPHandle = 0x00000002)  returns 0x00 (0000ms, 6244ms total)
T7A64 15400:910 JLINK_ReadReg(R0)  returns 0x00000001 (0000ms, 6244ms total)
T7A64 15400:910 JLINK_WriteReg(R0, 0x08000000)  returns 0x00 (0000ms, 6244ms total)
T7A64 15400:910 JLINK_WriteReg(R1, 0x00004000)  returns 0x00 (0000ms, 6244ms total)
T7A64 15400:910 JLINK_WriteReg(R2, 0x000000FF)  returns 0x00 (0000ms, 6244ms total)
T7A64 15400:910 JLINK_WriteReg(R3, 0x00000000)  returns 0x00 (0000ms, 6244ms total)
T7A64 15400:910 JLINK_WriteReg(R4, 0x00000000)  returns 0x00 (0000ms, 6244ms total)
T7A64 15400:910 JLINK_WriteReg(R5, 0x00000000)  returns 0x00 (0000ms, 6244ms total)
T7A64 15400:910 JLINK_WriteReg(R6, 0x00000000)  returns 0x00 (0000ms, 6244ms total)
T7A64 15400:910 JLINK_WriteReg(R7, 0x00000000)  returns 0x00 (0000ms, 6244ms total)
T7A64 15400:910 JLINK_WriteReg(R8, 0x00000000)  returns 0x00 (0000ms, 6244ms total)
T7A64 15400:910 JLINK_WriteReg(R9, 0x2000017C)  returns 0x00 (0000ms, 6244ms total)
T7A64 15400:910 JLINK_WriteReg(R10, 0x00000000)  returns 0x00 (0000ms, 6244ms total)
T7A64 15400:910 JLINK_WriteReg(R11, 0x00000000)  returns 0x00 (0000ms, 6244ms total)
T7A64 15400:910 JLINK_WriteReg(R12, 0x00000000)  returns 0x00 (0000ms, 6244ms total)
T7A64 15400:910 JLINK_WriteReg(R13 (SP), 0x20001000)  returns 0x00 (0000ms, 6244ms total)
T7A64 15400:910 JLINK_WriteReg(R14, 0x20000001)  returns 0x00 (0000ms, 6244ms total)
T7A64 15400:910 JLINK_WriteReg(R15 (PC), 0x200000BC)  returns 0x00 (0000ms, 6244ms total)
T7A64 15400:910 JLINK_WriteReg(XPSR, 0x01000000)  returns 0x00 (0000ms, 6244ms total)
T7A64 15400:910 JLINK_WriteReg(MSP, 0x20001000)  returns 0x00 (0000ms, 6244ms total)
T7A64 15400:910 JLINK_WriteReg(PSP, 0x20001000)  returns 0x00 (0000ms, 6244ms total)
T7A64 15400:910 JLINK_WriteReg(CFBP, 0x00000000)  returns 0x00 (0000ms, 6244ms total)
T7A64 15400:910 JLINK_SetBPEx(Addr = 0x20000000, Type = 0xFFFFFFF2)  returns 0x00000003 (0000ms, 6244ms total)
T7A64 15400:910 JLINK_Go() -- CPU_ReadMem(4 bytes @ 0xE0001000) (0005ms, 6249ms total)
T7A64 15400:915 JLINK_IsHalted()  returns FALSE (0000ms, 6249ms total)
T7A64 15400:970 JLINK_IsHalted()  returns FALSE (0000ms, 6249ms total)
T7A64 15400:972 JLINK_IsHalted()  returns FALSE (0000ms, 6249ms total)
T7A64 15400:974 JLINK_IsHalted()  returns FALSE (0000ms, 6249ms total)
T7A64 15400:976 JLINK_IsHalted()  returns FALSE (0000ms, 6249ms total)
T7A64 15400:978 JLINK_IsHalted()  returns FALSE (0000ms, 6249ms total)
T7A64 15400:980 JLINK_IsHalted()  returns FALSE (0000ms, 6249ms total)
T7A64 15400:982 JLINK_IsHalted()  returns FALSE (0000ms, 6249ms total)
T7A64 15400:984 JLINK_IsHalted()  returns FALSE (0000ms, 6249ms total)
T7A64 15400:986 JLINK_IsHalted()  returns FALSE (0000ms, 6249ms total)
T7A64 15400:988 JLINK_IsHalted()  returns FALSE (0000ms, 6249ms total)
T7A64 15400:990 JLINK_IsHalted()  returns FALSE (0000ms, 6249ms total)
T7A64 15400:992 JLINK_IsHalted()  returns FALSE (0000ms, 6249ms total)
T7A64 15400:994 JLINK_IsHalted()  returns FALSE (0000ms, 6249ms total)
T7A64 15400:996 JLINK_IsHalted()  returns FALSE (0000ms, 6249ms total)
T7A64 15400:998 JLINK_IsHalted()  returns FALSE (0000ms, 6249ms total)
T7A64 15401:000 JLINK_IsHalted()  returns FALSE (0000ms, 6249ms total)
T7A64 15401:002 JLINK_IsHalted()  returns FALSE (0000ms, 6249ms total)
T7A64 15401:004 JLINK_IsHalted()  returns FALSE (0000ms, 6249ms total)
T7A64 15401:006 JLINK_IsHalted()  returns FALSE (0000ms, 6249ms total)
T7A64 15401:008 JLINK_IsHalted()  returns FALSE (0000ms, 6249ms total)
T7A64 15401:010 JLINK_IsHalted()  returns FALSE (0000ms, 6249ms total)
T7A64 15401:012 JLINK_IsHalted()  returns FALSE (0000ms, 6249ms total)
T7A64 15401:014 JLINK_IsHalted()  returns FALSE (0000ms, 6249ms total)
T7A64 15401:016 JLINK_IsHalted()  returns FALSE (0000ms, 6249ms total)
T7A64 15401:026 JLINK_IsHalted()  returns FALSE (0000ms, 6249ms total)
T7A64 15401:028 JLINK_IsHalted()  returns FALSE (0000ms, 6249ms total)
T7A64 15401:030 JLINK_IsHalted()  returns FALSE (0000ms, 6249ms total)
T7A64 15401:032 JLINK_IsHalted()  returns FALSE (0000ms, 6249ms total)
T7A64 15401:034 JLINK_IsHalted()  returns FALSE (0000ms, 6249ms total)
T7A64 15401:036 JLINK_IsHalted()  returns FALSE (0001ms, 6250ms total)
T7A64 15401:039 JLINK_IsHalted()  returns FALSE (0000ms, 6249ms total)
T7A64 15401:041 JLINK_IsHalted()  returns FALSE (0000ms, 6249ms total)
T7A64 15401:043 JLINK_IsHalted()  returns FALSE (0000ms, 6249ms total)
T7A64 15401:045 JLINK_IsHalted()  returns FALSE (0000ms, 6249ms total)
T7A64 15401:047 JLINK_IsHalted()  returns FALSE (0000ms, 6249ms total)
T7A64 15401:049 JLINK_IsHalted()  returns FALSE (0000ms, 6249ms total)
T7A64 15401:051 JLINK_IsHalted()  returns FALSE (0000ms, 6249ms total)
T7A64 15401:053 JLINK_IsHalted()  returns FALSE (0000ms, 6249ms total)
T7A64 15401:055 JLINK_IsHalted()  returns FALSE (0000ms, 6249ms total)
T7A64 15401:057 JLINK_IsHalted()  returns FALSE (0000ms, 6249ms total)
T7A64 15401:059 JLINK_IsHalted()  returns FALSE (0000ms, 6249ms total)
T7A64 15401:061 JLINK_IsHalted()  returns FALSE (0000ms, 6249ms total)
T7A64 15401:063 JLINK_IsHalted()  returns FALSE (0000ms, 6249ms total)
T7A64 15401:068 JLINK_IsHalted()  returns FALSE (0000ms, 6249ms total)
T7A64 15401:070 JLINK_IsHalted()  returns FALSE (0001ms, 6250ms total)
T7A64 15401:073 JLINK_IsHalted()  returns FALSE (0000ms, 6249ms total)
T7A64 15401:075 JLINK_IsHalted()  returns FALSE (0000ms, 6249ms total)
T7A64 15401:077 JLINK_IsHalted()  returns FALSE (0000ms, 6249ms total)
T7A64 15401:079 JLINK_IsHalted()  returns FALSE (0000ms, 6249ms total)
T7A64 15401:081 JLINK_IsHalted() -- CPU_ReadMem(2 bytes @ 0x20000000)  returns TRUE (0004ms, 6253ms total)
T7A64 15401:085 JLINK_ReadReg(R15 (PC))  returns 0x20000000 (0000ms, 6249ms total)
T7A64 15401:085 JLINK_ClrBPEx(BPHandle = 0x00000003)  returns 0x00 (0000ms, 6249ms total)
T7A64 15401:085 JLINK_ReadReg(R0)  returns 0x00000000 (0000ms, 6249ms total)
T7A64 15401:086 JLINK_WriteReg(R0, 0x08004000)  returns 0x00 (0000ms, 6249ms total)
T7A64 15401:086 JLINK_WriteReg(R1, 0x00004000)  returns 0x00 (0000ms, 6249ms total)
T7A64 15401:086 JLINK_WriteReg(R2, 0x000000FF)  returns 0x00 (0000ms, 6249ms total)
T7A64 15401:086 JLINK_WriteReg(R3, 0x00000000)  returns 0x00 (0000ms, 6249ms total)
T7A64 15401:086 JLINK_WriteReg(R4, 0x00000000)  returns 0x00 (0000ms, 6249ms total)
T7A64 15401:086 JLINK_WriteReg(R5, 0x00000000)  returns 0x00 (0000ms, 6249ms total)
T7A64 15401:086 JLINK_WriteReg(R6, 0x00000000)  returns 0x00 (0000ms, 6249ms total)
T7A64 15401:086 JLINK_WriteReg(R7, 0x00000000)  returns 0x00 (0000ms, 6249ms total)
T7A64 15401:086 JLINK_WriteReg(R8, 0x00000000)  returns 0x00 (0000ms, 6249ms total)
T7A64 15401:086 JLINK_WriteReg(R9, 0x2000017C)  returns 0x00 (0000ms, 6249ms total)
T7A64 15401:086 JLINK_WriteReg(R10, 0x00000000)  returns 0x00 (0000ms, 6249ms total)
T7A64 15401:086 JLINK_WriteReg(R11, 0x00000000)  returns 0x00 (0000ms, 6249ms total)
T7A64 15401:086 JLINK_WriteReg(R12, 0x00000000)  returns 0x00 (0000ms, 6249ms total)
T7A64 15401:086 JLINK_WriteReg(R13 (SP), 0x20001000)  returns 0x00 (0000ms, 6249ms total)
T7A64 15401:086 JLINK_WriteReg(R14, 0x20000001)  returns 0x00 (0000ms, 6249ms total)
T7A64 15401:086 JLINK_WriteReg(R15 (PC), 0x20000020)  returns 0x00 (0000ms, 6249ms total)
T7A64 15401:086 JLINK_WriteReg(XPSR, 0x01000000)  returns 0x00 (0000ms, 6249ms total)
T7A64 15401:086 JLINK_WriteReg(MSP, 0x20001000)  returns 0x00 (0000ms, 6249ms total)
T7A64 15401:086 JLINK_WriteReg(PSP, 0x20001000)  returns 0x00 (0000ms, 6249ms total)
T7A64 15401:086 JLINK_WriteReg(CFBP, 0x00000000)  returns 0x00 (0001ms, 6250ms total)
T7A64 15401:087 JLINK_SetBPEx(Addr = 0x20000000, Type = 0xFFFFFFF2)  returns 0x00000004 (0000ms, 6250ms total)
T7A64 15401:087 JLINK_Go() -- CPU_ReadMem(4 bytes @ 0xE0001000) (0005ms, 6255ms total)
T7A64 15401:092 JLINK_IsHalted() -- CPU_ReadMem(2 bytes @ 0x20000000)  returns TRUE (0005ms, 6260ms total)
T7A64 15401:097 JLINK_ReadReg(R15 (PC))  returns 0x20000000 (0000ms, 6255ms total)
T7A64 15401:097 JLINK_ClrBPEx(BPHandle = 0x00000004)  returns 0x00 (0000ms, 6255ms total)
T7A64 15401:097 JLINK_ReadReg(R0)  returns 0x00000001 (0000ms, 6255ms total)
T7A64 15401:097 JLINK_WriteReg(R0, 0x08004000)  returns 0x00 (0000ms, 6255ms total)
T7A64 15401:097 JLINK_WriteReg(R1, 0x00004000)  returns 0x00 (0000ms, 6255ms total)
T7A64 15401:097 JLINK_WriteReg(R2, 0x000000FF)  returns 0x00 (0000ms, 6255ms total)
T7A64 15401:097 JLINK_WriteReg(R3, 0x00000000)  returns 0x00 (0000ms, 6255ms total)
T7A64 15401:097 JLINK_WriteReg(R4, 0x00000000)  returns 0x00 (0000ms, 6255ms total)
T7A64 15401:097 JLINK_WriteReg(R5, 0x00000000)  returns 0x00 (0000ms, 6255ms total)
T7A64 15401:097 JLINK_WriteReg(R6, 0x00000000)  returns 0x00 (0000ms, 6255ms total)
T7A64 15401:097 JLINK_WriteReg(R7, 0x00000000)  returns 0x00 (0000ms, 6255ms total)
T7A64 15401:097 JLINK_WriteReg(R8, 0x00000000)  returns 0x00 (0000ms, 6255ms total)
T7A64 15401:097 JLINK_WriteReg(R9, 0x2000017C)  returns 0x00 (0000ms, 6255ms total)
T7A64 15401:097 JLINK_WriteReg(R10, 0x00000000)  returns 0x00 (0000ms, 6255ms total)
T7A64 15401:097 JLINK_WriteReg(R11, 0x00000000)  returns 0x00 (0000ms, 6255ms total)
T7A64 15401:097 JLINK_WriteReg(R12, 0x00000000)  returns 0x00 (0000ms, 6255ms total)
T7A64 15401:097 JLINK_WriteReg(R13 (SP), 0x20001000)  returns 0x00 (0000ms, 6255ms total)
T7A64 15401:097 JLINK_WriteReg(R14, 0x20000001)  returns 0x00 (0000ms, 6255ms total)
T7A64 15401:097 JLINK_WriteReg(R15 (PC), 0x200000BC)  returns 0x00 (0000ms, 6255ms total)
T7A64 15401:097 JLINK_WriteReg(XPSR, 0x01000000)  returns 0x00 (0000ms, 6255ms total)
T7A64 15401:097 JLINK_WriteReg(MSP, 0x20001000)  returns 0x00 (0000ms, 6255ms total)
T7A64 15401:097 JLINK_WriteReg(PSP, 0x20001000)  returns 0x00 (0000ms, 6255ms total)
T7A64 15401:097 JLINK_WriteReg(CFBP, 0x00000000)  returns 0x00 (0000ms, 6255ms total)
T7A64 15401:097 JLINK_SetBPEx(Addr = 0x20000000, Type = 0xFFFFFFF2)  returns 0x00000005 (0000ms, 6255ms total)
T7A64 15401:097 JLINK_Go() -- CPU_ReadMem(4 bytes @ 0xE0001000) (0005ms, 6260ms total)
T7A64 15401:102 JLINK_IsHalted()  returns FALSE (0001ms, 6261ms total)
T7A64 15401:105 JLINK_IsHalted()  returns FALSE (0000ms, 6260ms total)
T7A64 15401:107 JLINK_IsHalted()  returns FALSE (0000ms, 6260ms total)
T7A64 15401:109 JLINK_IsHalted()  returns FALSE (0000ms, 6260ms total)
T7A64 15401:111 JLINK_IsHalted()  returns FALSE (0000ms, 6260ms total)
T7A64 15401:113 JLINK_IsHalted()  returns FALSE (0000ms, 6260ms total)
T7A64 15401:115 JLINK_IsHalted()  returns FALSE (0000ms, 6260ms total)
T7A64 15401:117 JLINK_IsHalted()  returns FALSE (0000ms, 6260ms total)
T7A64 15401:119 JLINK_IsHalted()  returns FALSE (0000ms, 6260ms total)
T7A64 15401:121 JLINK_IsHalted()  returns FALSE (0000ms, 6260ms total)
T7A64 15401:123 JLINK_IsHalted()  returns FALSE (0000ms, 6260ms total)
T7A64 15401:125 JLINK_IsHalted()  returns FALSE (0000ms, 6260ms total)
T7A64 15401:127 JLINK_IsHalted()  returns FALSE (0000ms, 6260ms total)
T7A64 15401:129 JLINK_IsHalted()  returns FALSE (0000ms, 6260ms total)
T7A64 15401:131 JLINK_IsHalted()  returns FALSE (0000ms, 6260ms total)
T7A64 15401:133 JLINK_IsHalted()  returns FALSE (0001ms, 6261ms total)
T7A64 15401:135 JLINK_IsHalted()  returns FALSE (0000ms, 6260ms total)
T7A64 15401:137 JLINK_IsHalted()  returns FALSE (0000ms, 6260ms total)
T7A64 15401:139 JLINK_IsHalted()  returns FALSE (0000ms, 6260ms total)
T7A64 15401:141 JLINK_IsHalted()  returns FALSE (0000ms, 6260ms total)
T7A64 15401:143 JLINK_IsHalted()  returns FALSE (0000ms, 6260ms total)
T7A64 15401:145 JLINK_IsHalted()  returns FALSE (0000ms, 6260ms total)
T7A64 15401:147 JLINK_IsHalted()  returns FALSE (0000ms, 6260ms total)
T7A64 15401:149 JLINK_IsHalted()  returns FALSE (0000ms, 6260ms total)
T7A64 15401:151 JLINK_IsHalted()  returns FALSE (0000ms, 6260ms total)
T7A64 15401:153 JLINK_IsHalted()  returns FALSE (0000ms, 6260ms total)
T7A64 15401:155 JLINK_IsHalted()  returns FALSE (0000ms, 6260ms total)
T7A64 15401:157 JLINK_IsHalted()  returns FALSE (0000ms, 6260ms total)
T7A64 15401:159 JLINK_IsHalted()  returns FALSE (0000ms, 6260ms total)
T7A64 15401:161 JLINK_IsHalted()  returns FALSE (0000ms, 6260ms total)
T7A64 15401:163 JLINK_IsHalted()  returns FALSE (0000ms, 6260ms total)
T7A64 15401:165 JLINK_IsHalted()  returns FALSE (0000ms, 6260ms total)
T7A64 15401:167 JLINK_IsHalted()  returns FALSE (0001ms, 6261ms total)
T7A64 15401:170 JLINK_IsHalted()  returns FALSE (0000ms, 6260ms total)
T7A64 15401:172 JLINK_IsHalted()  returns FALSE (0000ms, 6260ms total)
T7A64 15401:178 JLINK_IsHalted()  returns FALSE (0000ms, 6260ms total)
T7A64 15401:180 JLINK_IsHalted()  returns FALSE (0000ms, 6260ms total)
T7A64 15401:182 JLINK_IsHalted()  returns FALSE (0000ms, 6260ms total)
T7A64 15401:184 JLINK_IsHalted()  returns FALSE (0000ms, 6260ms total)
T7A64 15401:186 JLINK_IsHalted()  returns FALSE (0000ms, 6260ms total)
T7A64 15401:188 JLINK_IsHalted()  returns FALSE (0000ms, 6260ms total)
T7A64 15401:190 JLINK_IsHalted()  returns FALSE (0000ms, 6260ms total)
T7A64 15401:192 JLINK_IsHalted()  returns FALSE (0000ms, 6260ms total)
T7A64 15401:194 JLINK_IsHalted()  returns FALSE (0000ms, 6260ms total)
T7A64 15401:196 JLINK_IsHalted()  returns FALSE (0000ms, 6260ms total)
T7A64 15401:198 JLINK_IsHalted()  returns FALSE (0000ms, 6260ms total)
T7A64 15401:200 JLINK_IsHalted()  returns FALSE (0000ms, 6260ms total)
T7A64 15401:202 JLINK_IsHalted()  returns FALSE (0000ms, 6260ms total)
T7A64 15401:204 JLINK_IsHalted()  returns FALSE (0000ms, 6260ms total)
T7A64 15401:206 JLINK_IsHalted()  returns FALSE (0000ms, 6260ms total)
T7A64 15401:208 JLINK_IsHalted()  returns FALSE (0000ms, 6260ms total)
T7A64 15401:210 JLINK_IsHalted()  returns FALSE (0000ms, 6260ms total)
T7A64 15401:212 JLINK_IsHalted()  returns FALSE (0000ms, 6260ms total)
T7A64 15401:214 JLINK_IsHalted()  returns FALSE (0000ms, 6260ms total)
T7A64 15401:216 JLINK_IsHalted()  returns FALSE (0000ms, 6260ms total)
T7A64 15401:218 JLINK_IsHalted() -- CPU_ReadMem(2 bytes @ 0x20000000)  returns TRUE (0005ms, 6265ms total)
T7A64 15401:223 JLINK_ReadReg(R15 (PC))  returns 0x20000000 (0000ms, 6260ms total)
T7A64 15401:223 JLINK_ClrBPEx(BPHandle = 0x00000005)  returns 0x00 (0000ms, 6260ms total)
T7A64 15401:223 JLINK_ReadReg(R0)  returns 0x00000000 (0000ms, 6260ms total)
T7A64 15401:223 JLINK_WriteReg(R0, 0x00000001)  returns 0x00 (0000ms, 6260ms total)
T7A64 15401:223 JLINK_WriteReg(R1, 0x00004000)  returns 0x00 (0000ms, 6260ms total)
T7A64 15401:223 JLINK_WriteReg(R2, 0x000000FF)  returns 0x00 (0000ms, 6260ms total)
T7A64 15401:223 JLINK_WriteReg(R3, 0x00000000)  returns 0x00 (0000ms, 6260ms total)
T7A64 15401:223 JLINK_WriteReg(R4, 0x00000000)  returns 0x00 (0000ms, 6260ms total)
T7A64 15401:223 JLINK_WriteReg(R5, 0x00000000)  returns 0x00 (0000ms, 6260ms total)
T7A64 15401:223 JLINK_WriteReg(R6, 0x00000000)  returns 0x00 (0000ms, 6260ms total)
T7A64 15401:223 JLINK_WriteReg(R7, 0x00000000)  returns 0x00 (0000ms, 6260ms total)
T7A64 15401:223 JLINK_WriteReg(R8, 0x00000000)  returns 0x00 (0000ms, 6260ms total)
T7A64 15401:223 JLINK_WriteReg(R9, 0x2000017C)  returns 0x00 (0000ms, 6260ms total)
T7A64 15401:223 JLINK_WriteReg(R10, 0x00000000)  returns 0x00 (0000ms, 6260ms total)
T7A64 15401:223 JLINK_WriteReg(R11, 0x00000000)  returns 0x00 (0000ms, 6260ms total)
T7A64 15401:223 JLINK_WriteReg(R12, 0x00000000)  returns 0x00 (0000ms, 6260ms total)
T7A64 15401:223 JLINK_WriteReg(R13 (SP), 0x20001000)  returns 0x00 (0000ms, 6260ms total)
T7A64 15401:223 JLINK_WriteReg(R14, 0x20000001)  returns 0x00 (0000ms, 6260ms total)
T7A64 15401:223 JLINK_WriteReg(R15 (PC), 0x20000082)  returns 0x00 (0000ms, 6260ms total)
T7A64 15401:223 JLINK_WriteReg(XPSR, 0x01000000)  returns 0x00 (0000ms, 6260ms total)
T7A64 15401:223 JLINK_WriteReg(MSP, 0x20001000)  returns 0x00 (0000ms, 6260ms total)
T7A64 15401:223 JLINK_WriteReg(PSP, 0x20001000)  returns 0x00 (0000ms, 6260ms total)
T7A64 15401:223 JLINK_WriteReg(CFBP, 0x00000000)  returns 0x00 (0000ms, 6260ms total)
T7A64 15401:223 JLINK_SetBPEx(Addr = 0x20000000, Type = 0xFFFFFFF2)  returns 0x00000006 (0000ms, 6260ms total)
T7A64 15401:223 JLINK_Go() -- CPU_ReadMem(4 bytes @ 0xE0001000) (0005ms, 6265ms total)
T7A64 15401:228 JLINK_IsHalted() -- CPU_ReadMem(2 bytes @ 0x20000000)  returns TRUE (0005ms, 6270ms total)
T7A64 15401:233 JLINK_ReadReg(R15 (PC))  returns 0x20000000 (0000ms, 6265ms total)
T7A64 15401:233 JLINK_ClrBPEx(BPHandle = 0x00000006)  returns 0x00 (0000ms, 6265ms total)
T7A64 15401:233 JLINK_ReadReg(R0)  returns 0x00000000 (0000ms, 6265ms total)
T7A64 15401:295 JLINK_WriteMem(0x20000000, 0x0180 Bytes, ...) - Data: 00 BE 0A E0 0D 78 2D 06 68 40 08 24 40 00 00 D3 ... -- CPU_WriteMem(384 bytes @ 0x20000000)  returns 0x180 (0005ms, 6270ms total)
T7A64 15401:300 JLINK_WriteReg(R0, 0x08000000)  returns 0x00 (0000ms, 6270ms total)
T7A64 15401:300 JLINK_WriteReg(R1, 0x0ABA9500)  returns 0x00 (0000ms, 6270ms total)
T7A64 15401:300 JLINK_WriteReg(R2, 0x00000002)  returns 0x00 (0000ms, 6270ms total)
T7A64 15401:300 JLINK_WriteReg(R3, 0x00000000)  returns 0x00 (0000ms, 6270ms total)
T7A64 15401:300 JLINK_WriteReg(R4, 0x00000000)  returns 0x00 (0000ms, 6270ms total)
T7A64 15401:300 JLINK_WriteReg(R5, 0x00000000)  returns 0x00 (0000ms, 6270ms total)
T7A64 15401:300 JLINK_WriteReg(R6, 0x00000000)  returns 0x00 (0000ms, 6270ms total)
T7A64 15401:300 JLINK_WriteReg(R7, 0x00000000)  returns 0x00 (0000ms, 6270ms total)
T7A64 15401:300 JLINK_WriteReg(R8, 0x00000000)  returns 0x00 (0000ms, 6270ms total)
T7A64 15401:300 JLINK_WriteReg(R9, 0x2000017C)  returns 0x00 (0000ms, 6270ms total)
T7A64 15401:300 JLINK_WriteReg(R10, 0x00000000)  returns 0x00 (0000ms, 6270ms total)
T7A64 15401:300 JLINK_WriteReg(R11, 0x00000000)  returns 0x00 (0000ms, 6270ms total)
T7A64 15401:300 JLINK_WriteReg(R12, 0x00000000)  returns 0x00 (0000ms, 6270ms total)
T7A64 15401:300 JLINK_WriteReg(R13 (SP), 0x20001000)  returns 0x00 (0000ms, 6270ms total)
T7A64 15401:300 JLINK_WriteReg(R14, 0x20000001)  returns 0x00 (0000ms, 6270ms total)
T7A64 15401:300 JLINK_WriteReg(R15 (PC), 0x20000054)  returns 0x00 (0000ms, 6270ms total)
T7A64 15401:300 JLINK_WriteReg(XPSR, 0x01000000)  returns 0x00 (0000ms, 6270ms total)
T7A64 15401:300 JLINK_WriteReg(MSP, 0x20001000)  returns 0x00 (0000ms, 6270ms total)
T7A64 15401:300 JLINK_WriteReg(PSP, 0x20001000)  returns 0x00 (0000ms, 6270ms total)
T7A64 15401:300 JLINK_WriteReg(CFBP, 0x00000000)  returns 0x00 (0000ms, 6270ms total)
T7A64 15401:300 JLINK_SetBPEx(Addr = 0x20000000, Type = 0xFFFFFFF2) -- CPU_ReadMem(2 bytes @ 0x20000000)  returns 0x00000007 (0001ms, 6271ms total)
T7A64 15401:301 JLINK_Go() -- CPU_WriteMem(2 bytes @ 0x20000000) -- CPU_ReadMem(4 bytes @ 0xE0001000) (0005ms, 6276ms total)
T7A64 15401:306 JLINK_IsHalted() -- CPU_ReadMem(2 bytes @ 0x20000000)  returns TRUE (0005ms, 6281ms total)
T7A64 15401:311 JLINK_ReadReg(R15 (PC))  returns 0x20000000 (0000ms, 6276ms total)
T7A64 15401:311 JLINK_ClrBPEx(BPHandle = 0x00000007)  returns 0x00 (0000ms, 6276ms total)
T7A64 15401:311 JLINK_ReadReg(R0)  returns 0x00000000 (0000ms, 6276ms total)
T7A64 15401:318 JLINK_WriteMem(0x20000180, 0x0280 Bytes, ...) - Data: 70 0A 02 20 C1 01 00 08 FB 3E 00 08 51 37 00 08 ... -- CPU_WriteMem(640 bytes @ 0x20000180)  returns 0x280 (0007ms, 6283ms total)
T7A64 15401:325 JLINK_WriteMem(0x20000400, 0x0180 Bytes, ...) - Data: 0A 46 04 46 19 46 FF F7 F0 FF 20 46 10 BD 42 1C ... -- CPU_WriteMem(384 bytes @ 0x20000400)  returns 0x180 (0004ms, 6287ms total)
T7A64 15401:329 JLINK_WriteReg(R0, 0x08000000)  returns 0x00 (0000ms, 6287ms total)
T7A64 15401:329 JLINK_WriteReg(R1, 0x00000400)  returns 0x00 (0000ms, 6287ms total)
T7A64 15401:329 JLINK_WriteReg(R2, 0x20000180)  returns 0x00 (0000ms, 6287ms total)
T7A64 15401:329 JLINK_WriteReg(R3, 0x00000000)  returns 0x00 (0000ms, 6287ms total)
T7A64 15401:329 JLINK_WriteReg(R4, 0x00000000)  returns 0x00 (0000ms, 6287ms total)
T7A64 15401:329 JLINK_WriteReg(R5, 0x00000000)  returns 0x00 (0000ms, 6287ms total)
T7A64 15401:329 JLINK_WriteReg(R6, 0x00000000)  returns 0x00 (0000ms, 6287ms total)
T7A64 15401:329 JLINK_WriteReg(R7, 0x00000000)  returns 0x00 (0000ms, 6287ms total)
T7A64 15401:329 JLINK_WriteReg(R8, 0x00000000)  returns 0x00 (0000ms, 6287ms total)
T7A64 15401:329 JLINK_WriteReg(R9, 0x2000017C)  returns 0x00 (0000ms, 6287ms total)
T7A64 15401:329 JLINK_WriteReg(R10, 0x00000000)  returns 0x00 (0000ms, 6287ms total)
T7A64 15401:329 JLINK_WriteReg(R11, 0x00000000)  returns 0x00 (0000ms, 6287ms total)
T7A64 15401:329 JLINK_WriteReg(R12, 0x00000000)  returns 0x00 (0000ms, 6287ms total)
T7A64 15401:329 JLINK_WriteReg(R13 (SP), 0x20001000)  returns 0x00 (0000ms, 6287ms total)
T7A64 15401:329 JLINK_WriteReg(R14, 0x20000001)  returns 0x00 (0000ms, 6287ms total)
T7A64 15401:329 JLINK_WriteReg(R15 (PC), 0x20000108)  returns 0x00 (0000ms, 6287ms total)
T7A64 15401:329 JLINK_WriteReg(XPSR, 0x01000000)  returns 0x00 (0000ms, 6287ms total)
T7A64 15401:329 JLINK_WriteReg(MSP, 0x20001000)  returns 0x00 (0000ms, 6287ms total)
T7A64 15401:329 JLINK_WriteReg(PSP, 0x20001000)  returns 0x00 (0000ms, 6287ms total)
T7A64 15401:329 JLINK_WriteReg(CFBP, 0x00000000)  returns 0x00 (0000ms, 6287ms total)
T7A64 15401:329 JLINK_SetBPEx(Addr = 0x20000000, Type = 0xFFFFFFF2)  returns 0x00000008 (0000ms, 6287ms total)
T7A64 15401:329 JLINK_Go() -- CPU_ReadMem(4 bytes @ 0xE0001000) (0005ms, 6292ms total)
T7A64 15401:334 JLINK_IsHalted()  returns FALSE (0001ms, 6293ms total)
T7A64 15401:338 JLINK_IsHalted()  returns FALSE (0000ms, 6292ms total)
T7A64 15401:340 JLINK_IsHalted()  returns FALSE (0000ms, 6292ms total)
T7A64 15401:342 JLINK_IsHalted()  returns FALSE (0000ms, 6292ms total)
T7A64 15401:344 JLINK_IsHalted()  returns FALSE (0000ms, 6292ms total)
T7A64 15401:346 JLINK_IsHalted()  returns FALSE (0000ms, 6292ms total)
T7A64 15401:348 JLINK_IsHalted()  returns FALSE (0000ms, 6292ms total)
T7A64 15401:350 JLINK_IsHalted() -- CPU_ReadMem(2 bytes @ 0x20000000)  returns TRUE (0004ms, 6296ms total)
T7A64 15401:354 JLINK_ReadReg(R15 (PC))  returns 0x20000000 (0000ms, 6292ms total)
T7A64 15401:354 JLINK_ClrBPEx(BPHandle = 0x00000008)  returns 0x00 (0000ms, 6292ms total)
T7A64 15401:354 JLINK_ReadReg(R0)  returns 0x00000000 (0000ms, 6292ms total)
T7A64 15401:355 JLINK_WriteMem(0x20000180, 0x0280 Bytes, ...) - Data: 20 2A 04 DB 20 3A 00 FA 02 F1 00 20 70 47 91 40 ... -- CPU_WriteMem(640 bytes @ 0x20000180)  returns 0x280 (0006ms, 6298ms total)
T7A64 15401:361 JLINK_WriteMem(0x20000400, 0x0180 Bytes, ...) - Data: CA 6A 83 8B 0F 4C 04 EB 03 53 1A 43 CA 62 01 68 ... -- CPU_WriteMem(384 bytes @ 0x20000400)  returns 0x180 (0004ms, 6302ms total)
T7A64 15401:365 JLINK_WriteReg(R0, 0x08000400)  returns 0x00 (0000ms, 6302ms total)
T7A64 15401:365 JLINK_WriteReg(R1, 0x00000400)  returns 0x00 (0000ms, 6302ms total)
T7A64 15401:365 JLINK_WriteReg(R2, 0x20000180)  returns 0x00 (0000ms, 6302ms total)
T7A64 15401:365 JLINK_WriteReg(R3, 0x00000000)  returns 0x00 (0000ms, 6302ms total)
T7A64 15401:365 JLINK_WriteReg(R4, 0x00000000)  returns 0x00 (0000ms, 6302ms total)
T7A64 15401:365 JLINK_WriteReg(R5, 0x00000000)  returns 0x00 (0000ms, 6302ms total)
T7A64 15401:365 JLINK_WriteReg(R6, 0x00000000)  returns 0x00 (0000ms, 6302ms total)
T7A64 15401:365 JLINK_WriteReg(R7, 0x00000000)  returns 0x00 (0000ms, 6302ms total)
T7A64 15401:365 JLINK_WriteReg(R8, 0x00000000)  returns 0x00 (0000ms, 6302ms total)
T7A64 15401:365 JLINK_WriteReg(R9, 0x2000017C)  returns 0x00 (0000ms, 6302ms total)
T7A64 15401:365 JLINK_WriteReg(R10, 0x00000000)  returns 0x00 (0000ms, 6302ms total)
T7A64 15401:365 JLINK_WriteReg(R11, 0x00000000)  returns 0x00 (0000ms, 6302ms total)
T7A64 15401:365 JLINK_WriteReg(R12, 0x00000000)  returns 0x00 (0000ms, 6302ms total)
T7A64 15401:365 JLINK_WriteReg(R13 (SP), 0x20001000)  returns 0x00 (0000ms, 6302ms total)
T7A64 15401:365 JLINK_WriteReg(R14, 0x20000001)  returns 0x00 (0001ms, 6303ms total)
T7A64 15401:366 JLINK_WriteReg(R15 (PC), 0x20000108)  returns 0x00 (0000ms, 6303ms total)
T7A64 15401:366 JLINK_WriteReg(XPSR, 0x01000000)  returns 0x00 (0000ms, 6303ms total)
T7A64 15401:366 JLINK_WriteReg(MSP, 0x20001000)  returns 0x00 (0000ms, 6303ms total)
T7A64 15401:366 JLINK_WriteReg(PSP, 0x20001000)  returns 0x00 (0000ms, 6303ms total)
T7A64 15401:366 JLINK_WriteReg(CFBP, 0x00000000)  returns 0x00 (0000ms, 6303ms total)
T7A64 15401:366 JLINK_SetBPEx(Addr = 0x20000000, Type = 0xFFFFFFF2)  returns 0x00000009 (0000ms, 6303ms total)
T7A64 15401:366 JLINK_Go() -- CPU_ReadMem(4 bytes @ 0xE0001000) (0005ms, 6308ms total)
T7A64 15401:371 JLINK_IsHalted()  returns FALSE (0000ms, 6308ms total)
T7A64 15401:375 JLINK_IsHalted()  returns FALSE (0000ms, 6308ms total)
T7A64 15401:377 JLINK_IsHalted()  returns FALSE (0000ms, 6308ms total)
T7A64 15401:379 JLINK_IsHalted()  returns FALSE (0000ms, 6308ms total)
T7A64 15401:381 JLINK_IsHalted()  returns FALSE (0000ms, 6308ms total)
T7A64 15401:383 JLINK_IsHalted()  returns FALSE (0000ms, 6308ms total)
T7A64 15401:385 JLINK_IsHalted()  returns FALSE (0000ms, 6308ms total)
T7A64 15401:387 JLINK_IsHalted() -- CPU_ReadMem(2 bytes @ 0x20000000)  returns TRUE (0004ms, 6312ms total)
T7A64 15401:391 JLINK_ReadReg(R15 (PC))  returns 0x20000000 (0000ms, 6308ms total)
T7A64 15401:391 JLINK_ClrBPEx(BPHandle = 0x00000009)  returns 0x00 (0000ms, 6308ms total)
T7A64 15401:391 JLINK_ReadReg(R0)  returns 0x00000000 (0001ms, 6309ms total)
T7A64 15401:393 JLINK_WriteMem(0x20000180, 0x0280 Bytes, ...) - Data: B0 F5 FA 6F 4E D8 04 F1 24 01 3E 48 FF F7 6B FF ... -- CPU_WriteMem(640 bytes @ 0x20000180)  returns 0x280 (0007ms, 6316ms total)
T7A64 15401:400 JLINK_WriteMem(0x20000400, 0x0180 Bytes, ...) - Data: 01 EB 46 06 16 44 B5 71 9D F8 04 50 06 78 06 EB ... -- CPU_WriteMem(384 bytes @ 0x20000400)  returns 0x180 (0004ms, 6320ms total)
T7A64 15401:404 JLINK_WriteReg(R0, 0x08000800)  returns 0x00 (0000ms, 6320ms total)
T7A64 15401:404 JLINK_WriteReg(R1, 0x00000400)  returns 0x00 (0000ms, 6320ms total)
T7A64 15401:404 JLINK_WriteReg(R2, 0x20000180)  returns 0x00 (0000ms, 6320ms total)
T7A64 15401:404 JLINK_WriteReg(R3, 0x00000000)  returns 0x00 (0000ms, 6320ms total)
T7A64 15401:404 JLINK_WriteReg(R4, 0x00000000)  returns 0x00 (0001ms, 6321ms total)
T7A64 15401:405 JLINK_WriteReg(R5, 0x00000000)  returns 0x00 (0000ms, 6321ms total)
T7A64 15401:405 JLINK_WriteReg(R6, 0x00000000)  returns 0x00 (0000ms, 6321ms total)
T7A64 15401:405 JLINK_WriteReg(R7, 0x00000000)  returns 0x00 (0000ms, 6321ms total)
T7A64 15401:405 JLINK_WriteReg(R8, 0x00000000)  returns 0x00 (0000ms, 6321ms total)
T7A64 15401:405 JLINK_WriteReg(R9, 0x2000017C)  returns 0x00 (0000ms, 6321ms total)
T7A64 15401:405 JLINK_WriteReg(R10, 0x00000000)  returns 0x00 (0000ms, 6321ms total)
T7A64 15401:405 JLINK_WriteReg(R11, 0x00000000)  returns 0x00 (0000ms, 6321ms total)
T7A64 15401:405 JLINK_WriteReg(R12, 0x00000000)  returns 0x00 (0000ms, 6321ms total)
T7A64 15401:405 JLINK_WriteReg(R13 (SP), 0x20001000)  returns 0x00 (0000ms, 6321ms total)
T7A64 15401:405 JLINK_WriteReg(R14, 0x20000001)  returns 0x00 (0000ms, 6321ms total)
T7A64 15401:405 JLINK_WriteReg(R15 (PC), 0x20000108)  returns 0x00 (0000ms, 6321ms total)
T7A64 15401:405 JLINK_WriteReg(XPSR, 0x01000000)  returns 0x00 (0000ms, 6321ms total)
T7A64 15401:405 JLINK_WriteReg(MSP, 0x20001000)  returns 0x00 (0000ms, 6321ms total)
T7A64 15401:405 JLINK_WriteReg(PSP, 0x20001000)  returns 0x00 (0000ms, 6321ms total)
T7A64 15401:405 JLINK_WriteReg(CFBP, 0x00000000)  returns 0x00 (0000ms, 6321ms total)
T7A64 15401:405 JLINK_SetBPEx(Addr = 0x20000000, Type = 0xFFFFFFF2)  returns 0x0000000A (0000ms, 6321ms total)
T7A64 15401:405 JLINK_Go() -- CPU_ReadMem(4 bytes @ 0xE0001000) (0005ms, 6326ms total)
T7A64 15401:410 JLINK_IsHalted()  returns FALSE (0001ms, 6327ms total)
T7A64 15401:414 JLINK_IsHalted()  returns FALSE (0000ms, 6326ms total)
T7A64 15401:416 JLINK_IsHalted()  returns FALSE (0000ms, 6326ms total)
T7A64 15401:418 JLINK_IsHalted()  returns FALSE (0000ms, 6326ms total)
T7A64 15401:420 JLINK_IsHalted()  returns FALSE (0000ms, 6326ms total)
T7A64 15401:422 JLINK_IsHalted()  returns FALSE (0000ms, 6326ms total)
T7A64 15401:424 JLINK_IsHalted()  returns FALSE (0000ms, 6326ms total)
T7A64 15401:426 JLINK_IsHalted() -- CPU_ReadMem(2 bytes @ 0x20000000)  returns TRUE (0004ms, 6330ms total)
T7A64 15401:430 JLINK_ReadReg(R15 (PC))  returns 0x20000000 (0000ms, 6326ms total)
T7A64 15401:430 JLINK_ClrBPEx(BPHandle = 0x0000000A)  returns 0x00 (0000ms, 6326ms total)
T7A64 15401:430 JLINK_ReadReg(R0)  returns 0x00000000 (0000ms, 6326ms total)
T7A64 15401:431 JLINK_WriteMem(0x20000180, 0x0280 Bytes, ...) - Data: 43 F0 01 03 13 60 01 70 70 47 00 00 10 3C 02 40 ... -- CPU_WriteMem(640 bytes @ 0x20000180)  returns 0x280 (0007ms, 6333ms total)
T7A64 15401:438 JLINK_WriteMem(0x20000400, 0x0180 Bytes, ...) - Data: 00 00 FF F7 00 00 FE F7 00 00 FC F7 00 00 FA F7 ... -- CPU_WriteMem(384 bytes @ 0x20000400)  returns 0x180 (0005ms, 6338ms total)
T7A64 15401:443 JLINK_WriteReg(R0, 0x08000C00)  returns 0x00 (0000ms, 6338ms total)
T7A64 15401:443 JLINK_WriteReg(R1, 0x00000400)  returns 0x00 (0000ms, 6338ms total)
T7A64 15401:443 JLINK_WriteReg(R2, 0x20000180)  returns 0x00 (0000ms, 6338ms total)
T7A64 15401:443 JLINK_WriteReg(R3, 0x00000000)  returns 0x00 (0000ms, 6338ms total)
T7A64 15401:443 JLINK_WriteReg(R4, 0x00000000)  returns 0x00 (0000ms, 6338ms total)
T7A64 15401:443 JLINK_WriteReg(R5, 0x00000000)  returns 0x00 (0000ms, 6338ms total)
T7A64 15401:443 JLINK_WriteReg(R6, 0x00000000)  returns 0x00 (0000ms, 6338ms total)
T7A64 15401:443 JLINK_WriteReg(R7, 0x00000000)  returns 0x00 (0000ms, 6338ms total)
T7A64 15401:443 JLINK_WriteReg(R8, 0x00000000)  returns 0x00 (0000ms, 6338ms total)
T7A64 15401:443 JLINK_WriteReg(R9, 0x2000017C)  returns 0x00 (0000ms, 6338ms total)
T7A64 15401:443 JLINK_WriteReg(R10, 0x00000000)  returns 0x00 (0000ms, 6338ms total)
T7A64 15401:443 JLINK_WriteReg(R11, 0x00000000)  returns 0x00 (0000ms, 6338ms total)
T7A64 15401:443 JLINK_WriteReg(R12, 0x00000000)  returns 0x00 (0000ms, 6338ms total)
T7A64 15401:443 JLINK_WriteReg(R13 (SP), 0x20001000)  returns 0x00 (0000ms, 6338ms total)
T7A64 15401:443 JLINK_WriteReg(R14, 0x20000001)  returns 0x00 (0000ms, 6338ms total)
T7A64 15401:443 JLINK_WriteReg(R15 (PC), 0x20000108)  returns 0x00 (0000ms, 6338ms total)
T7A64 15401:443 JLINK_WriteReg(XPSR, 0x01000000)  returns 0x00 (0000ms, 6338ms total)
T7A64 15401:443 JLINK_WriteReg(MSP, 0x20001000)  returns 0x00 (0000ms, 6338ms total)
T7A64 15401:443 JLINK_WriteReg(PSP, 0x20001000)  returns 0x00 (0000ms, 6338ms total)
T7A64 15401:443 JLINK_WriteReg(CFBP, 0x00000000)  returns 0x00 (0000ms, 6338ms total)
T7A64 15401:443 JLINK_SetBPEx(Addr = 0x20000000, Type = 0xFFFFFFF2)  returns 0x0000000B (0000ms, 6338ms total)
T7A64 15401:443 JLINK_Go() -- CPU_ReadMem(4 bytes @ 0xE0001000) (0005ms, 6343ms total)
T7A64 15401:448 JLINK_IsHalted()  returns FALSE (0000ms, 6343ms total)
T7A64 15401:452 JLINK_IsHalted()  returns FALSE (0000ms, 6343ms total)
T7A64 15401:454 JLINK_IsHalted()  returns FALSE (0000ms, 6343ms total)
T7A64 15401:456 JLINK_IsHalted()  returns FALSE (0000ms, 6343ms total)
T7A64 15401:458 JLINK_IsHalted()  returns FALSE (0000ms, 6343ms total)
T7A64 15401:460 JLINK_IsHalted()  returns FALSE (0000ms, 6343ms total)
T7A64 15401:462 JLINK_IsHalted()  returns FALSE (0000ms, 6343ms total)
T7A64 15401:464 JLINK_IsHalted() -- CPU_ReadMem(2 bytes @ 0x20000000)  returns TRUE (0005ms, 6348ms total)
T7A64 15401:469 JLINK_ReadReg(R15 (PC))  returns 0x20000000 (0000ms, 6343ms total)
T7A64 15401:469 JLINK_ClrBPEx(BPHandle = 0x0000000B)  returns 0x00 (0000ms, 6343ms total)
T7A64 15401:469 JLINK_ReadReg(R0)  returns 0x00000000 (0000ms, 6343ms total)
T7A64 15401:470 JLINK_WriteMem(0x20000180, 0x0280 Bytes, ...) - Data: FB D1 80 F8 3C 40 00 20 78 BD 00 00 00 23 01 40 ... -- CPU_WriteMem(640 bytes @ 0x20000180)  returns 0x280 (0007ms, 6350ms total)
T7A64 15401:477 JLINK_WriteMem(0x20000400, 0x0180 Bytes, ...) - Data: 40 F2 01 64 A3 43 43 F4 80 73 03 64 53 68 5B 05 ... -- CPU_WriteMem(384 bytes @ 0x20000400)  returns 0x180 (0004ms, 6354ms total)
T7A64 15401:481 JLINK_WriteReg(R0, 0x08001000)  returns 0x00 (0000ms, 6354ms total)
T7A64 15401:481 JLINK_WriteReg(R1, 0x00000400)  returns 0x00 (0000ms, 6354ms total)
T7A64 15401:481 JLINK_WriteReg(R2, 0x20000180)  returns 0x00 (0000ms, 6354ms total)
T7A64 15401:481 JLINK_WriteReg(R3, 0x00000000)  returns 0x00 (0000ms, 6354ms total)
T7A64 15401:481 JLINK_WriteReg(R4, 0x00000000)  returns 0x00 (0000ms, 6354ms total)
T7A64 15401:481 JLINK_WriteReg(R5, 0x00000000)  returns 0x00 (0000ms, 6354ms total)
T7A64 15401:481 JLINK_WriteReg(R6, 0x00000000)  returns 0x00 (0000ms, 6354ms total)
T7A64 15401:481 JLINK_WriteReg(R7, 0x00000000)  returns 0x00 (0000ms, 6354ms total)
T7A64 15401:481 JLINK_WriteReg(R8, 0x00000000)  returns 0x00 (0000ms, 6354ms total)
T7A64 15401:481 JLINK_WriteReg(R9, 0x2000017C)  returns 0x00 (0000ms, 6354ms total)
T7A64 15401:481 JLINK_WriteReg(R10, 0x00000000)  returns 0x00 (0000ms, 6354ms total)
T7A64 15401:481 JLINK_WriteReg(R11, 0x00000000)  returns 0x00 (0000ms, 6354ms total)
T7A64 15401:481 JLINK_WriteReg(R12, 0x00000000)  returns 0x00 (0000ms, 6354ms total)
T7A64 15401:481 JLINK_WriteReg(R13 (SP), 0x20001000)  returns 0x00 (0000ms, 6354ms total)
T7A64 15401:481 JLINK_WriteReg(R14, 0x20000001)  returns 0x00 (0000ms, 6354ms total)
T7A64 15401:481 JLINK_WriteReg(R15 (PC), 0x20000108)  returns 0x00 (0000ms, 6354ms total)
T7A64 15401:481 JLINK_WriteReg(XPSR, 0x01000000)  returns 0x00 (0000ms, 6354ms total)
T7A64 15401:481 JLINK_WriteReg(MSP, 0x20001000)  returns 0x00 (0000ms, 6354ms total)
T7A64 15401:481 JLINK_WriteReg(PSP, 0x20001000)  returns 0x00 (0000ms, 6354ms total)
T7A64 15401:481 JLINK_WriteReg(CFBP, 0x00000000)  returns 0x00 (0000ms, 6354ms total)
T7A64 15401:481 JLINK_SetBPEx(Addr = 0x20000000, Type = 0xFFFFFFF2)  returns 0x0000000C (0000ms, 6354ms total)
T7A64 15401:481 JLINK_Go() -- CPU_ReadMem(4 bytes @ 0xE0001000) (0006ms, 6360ms total)
T7A64 15401:487 JLINK_IsHalted()  returns FALSE (0000ms, 6360ms total)
T7A64 15401:489 JLINK_IsHalted()  returns FALSE (0000ms, 6360ms total)
T7A64 15401:491 JLINK_IsHalted()  returns FALSE (0000ms, 6360ms total)
T7A64 15401:493 JLINK_IsHalted()  returns FALSE (0000ms, 6360ms total)
T7A64 15401:495 JLINK_IsHalted()  returns FALSE (0000ms, 6360ms total)
T7A64 15401:497 JLINK_IsHalted()  returns FALSE (0000ms, 6360ms total)
T7A64 15401:499 JLINK_IsHalted()  returns FALSE (0000ms, 6360ms total)
T7A64 15401:506 JLINK_IsHalted() -- CPU_ReadMem(2 bytes @ 0x20000000)  returns TRUE (0005ms, 6365ms total)
T7A64 15401:511 JLINK_ReadReg(R15 (PC))  returns 0x20000000 (0000ms, 6360ms total)
T7A64 15401:511 JLINK_ClrBPEx(BPHandle = 0x0000000C)  returns 0x00 (0000ms, 6360ms total)
T7A64 15401:511 JLINK_ReadReg(R0)  returns 0x00000000 (0000ms, 6360ms total)
T7A64 15401:511 JLINK_WriteMem(0x20000180, 0x0280 Bytes, ...) - Data: 01 20 70 BD 2D E9 F8 43 04 46 4F F0 00 09 CD F8 ... -- CPU_WriteMem(640 bytes @ 0x20000180)  returns 0x280 (0007ms, 6367ms total)
T7A64 15401:518 JLINK_WriteMem(0x20000400, 0x0180 Bytes, ...) - Data: 90 F8 34 00 00 25 01 28 0D D0 01 20 84 F8 34 00 ... -- CPU_WriteMem(384 bytes @ 0x20000400)  returns 0x180 (0004ms, 6371ms total)
T7A64 15401:522 JLINK_WriteReg(R0, 0x08001400)  returns 0x00 (0001ms, 6372ms total)
T7A64 15401:523 JLINK_WriteReg(R1, 0x00000400)  returns 0x00 (0000ms, 6372ms total)
